LTspice 24.1.9 for Windows
Circuit: C:\Users\fjmoy\OneDrive\Documentos\Fran\BuenosAires\2026\1C\Taller-de-Circuitos-Grupo-5\Checkpoint 2\Simulaciones Spice\Rta_al_escalon.net
Start Time: Wed Apr 22 19:43:32 2026
Options: logopinfo
solver = Normal
Maximum thread count: 4
tnom = 27
temp = 27
method = trap
Direct Newton iteration failed to find .op point.  (Use ".option noopiter" to skip.)
Starting Gmin stepping
Gmin = 10
Gmin = 1.07374
Gmin = 0.115292
Gmin = 0.0123794
Gmin = 0.00132923
Gmin = 0.000142725
Gmin = 1.5325e-05
Gmin = 1.6455e-06
Gmin = 1.76685e-07
Gmin = 1.89714e-08
Gmin = 2.03704e-09
Gmin = 2.18725e-10
Gmin = 2.34854e-11
Gmin = 2.52173e-12
Gmin = 2.70769e-13
Gmin = 0
Gmin stepping succeeded in finding the operating point.

Semiconductor Device Operating Points:
                        --- Diodes ---
Name:     u1:D1       u1:D2       u1:D5       u1:D3       u1:D6
Model:      dx          dx          dx          dx          dx
Id:     -7.83e-12    1.03e-05    4.60e-04   -3.44e-13    2.28e-06
Vd:     -7.83e+00    5.96e-01    6.95e-01   -3.43e-01    5.57e-01
Req:     1.00e+12    2.51e+03    5.63e+01    1.00e+12    1.13e+04
CAP:     0.00e+00    0.00e+00    0.00e+00    0.00e+00    0.00e+00

Name:     u1:D4
Model:      dx
Id:     -1.98e-13
Vd:     -1.97e-01
Req:     1.00e+12
CAP:     0.00e+00

                        --- Bipolar Transistors ---
Name:      Qtip1         Q1          Q4          Q5          Q6
Model:      pnp        bc547b      bc547b      bc547b      bc547b
Ib:      -1.47e-02    3.01e-06    2.93e-06    6.42e-06    6.52e-06
Ic:      -1.47e+00    9.37e-04    8.91e-04    1.83e-03    1.83e-03
Vbe:     -9.63e-01    6.35e-01    6.34e-01    6.55e-01    6.55e-01
Vbc:      2.04e+00   -6.28e+00   -4.71e+00   -1.03e+00    0.00e+00
Vce:     -3.01e+00    6.92e+00    5.35e+00    1.68e+00    6.55e-01
BetaDC:   1.00e+02    3.11e+02    3.04e+02    2.86e+02    2.81e+02
Gm:       5.67e+01    3.57e-02    3.39e-02    6.93e-02    6.91e-02
Rpi:      1.76e+00    8.69e+03    8.93e+03    4.07e+03    4.01e+03
Rx:       0.00e+00    1.00e+00    1.00e+00    1.00e+00    1.00e+00
Ro:       5.18e+48    7.25e+04    7.45e+04    3.42e+04    3.37e+04
Cbe:      0.00e+00    5.94e-11    5.83e-11    8.33e-11    8.34e-11
Cbc:      0.00e+00    1.00e-12    1.09e-12    1.59e-12    2.31e-12
Cjs:      0.00e+00    0.00e+00    0.00e+00    0.00e+00    0.00e+00
BetaAC:   1.00e+02    3.10e+02    3.03e+02    2.82e+02    2.77e+02
Cbx:      0.00e+00    6.18e-13    6.68e-13    9.75e-13    1.42e-12
Ft:       0.00e+00    9.31e+07    8.99e+07    1.28e+08    1.26e+08

Name:        Q7          Q8          Q2          Q3        u1:Q1
Model:     bc547b      bc547b      bc557b      bc557b        qx
Ib:       5.58e-05   -6.99e-12   -2.88e-06   -2.72e-06   -3.51e-08
Ic:       1.47e-02    9.06e-12   -9.31e-04   -9.47e-04   -3.89e-05
Vbe:      7.17e-01    1.11e-01   -6.25e-01   -6.23e-01   -6.90e-01
Vbc:     -1.33e+00   -7.10e+00    0.00e+00    1.57e+00    4.67e+00
Vce:      2.04e+00    7.21e+00   -6.25e-01   -2.19e+00   -5.36e+00
BetaDC:   2.63e+02   -1.29e+00    3.23e+02    3.48e+02    1.11e+03
Gm:       5.12e-01    7.25e-11    3.52e-02    3.58e-02    1.51e-03
Rpi:      4.67e+02    3.74e+11    9.15e+03    9.69e+03    7.38e+05
Rx:       1.00e+00    1.00e+00    1.00e+00    1.00e+00    0.00e+00
Ro:       4.28e+03    3.70e+13    2.22e+04    2.35e+04    5.70e+92
Cbe:      3.31e-10    1.44e-11    5.20e-11    5.23e-11    0.00e+00
Cbc:      1.50e-12    9.71e-13    6.80e-12    2.51e-12    0.00e+00
Cjs:      0.00e+00    0.00e+00    0.00e+00    0.00e+00    0.00e+00
BetaAC:   2.39e+02    2.71e+01    3.22e+02    3.47e+02    1.11e+03
Cbx:      9.23e-13    5.97e-13    4.02e-12    1.48e-12    0.00e+00
Ft:       2.44e+08    7.20e-01    8.92e+07    1.01e+08    0.00e+00

Name:      u1:Q2
Model:       qx
Ib:      -5.49e-08
Ic:      -6.10e-05
Vbe:     -7.02e-01
Vbc:      4.64e+00
Vce:     -5.34e+00
BetaDC:   1.11e+03
Gm:       2.36e-03
Rpi:      4.71e+05
Rx:       0.00e+00
Ro:       2.34e+92
Cbe:      0.00e+00
Cbc:      0.00e+00
Cjs:      0.00e+00
BetaAC:   1.11e+03
Cbx:      0.00e+00
Ft:       0.00e+00


Total elapsed time: 0.846 seconds.

Files loaded:
C:\Users\fjmoy\OneDrive\Documentos\Fran\BuenosAires\2026\1C\Taller-de-Circuitos-Grupo-5\Checkpoint 2\Simulaciones Spice\Rta_al_escalon.net
C:\Users\fjmoy\AppData\Local\LTspice\lib\cmp\standard.bjt
C:\Users\fjmoy\AppData\Local\LTspice\lib\sub\opamp.sub
C:\Users\fjmoy\OneDrive\Documentos\Fran\BuenosAires\2026\1C\Taller-de-Circuitos-Grupo-5\Checkpoint 2\Simulaciones Spice\lm358.lib
C:\Users\fjmoy\OneDrive\Documentos\Fran\BuenosAires\2026\1C\Taller-de-Circuitos-Grupo-5\Checkpoint 2\Simulaciones Spice\TL431.mod

