LTspice 24.0.12 for Windows
Circuit: * C:\Users\Santiago\Desktop\facu\2026c1\Circuitos G4\Checkpoint 3\Simulaciones\Pop.asc
Start Time: Fri May  8 17:08:21 2026
solver = Normal
Maximum thread count: 4
tnom = 27
temp = 27
method = modified trap
WARNING: Less than two connections to node vf.  This node is used by q8.
Direct Newton iteration failed to find .op point.  (Use ".option noopiter" to skip.)
Starting Gmin stepping
Gmin = 10
Gmin = 1.07374
Gmin = 0.115292
Gmin = 0.0123794
Gmin = 0.00132923
Gmin = 0.000142725
Gmin = 1.5325e-05
Gmin = 1.6455e-06
Gmin = 1.76685e-07
Gmin = 1.89714e-08
Gmin = 2.03704e-09
Gmin = 2.18725e-10
Gmin = 2.34854e-11
Gmin = 2.52173e-12
Gmin = 2.70769e-13
Gmin = 0
Gmin stepping succeeded in finding the operating point.

Semiconductor Device Operating Points:
                        --- Diodes ---
Name:    d:u2:1      d:u2:2      d:u2:5      d:u2:6      d:u2:4
Model:    u2:dx       u2:dx       u2:dx       u2:dx       u2:dx
Id:     -7.89e-12    9.86e-05    4.59e-04    2.29e-06   -1.98e-13
Vd:     -7.89e+00    6.55e-01    6.95e-01    5.57e-01   -1.97e-01
Req:     1.00e+12    2.62e+02    5.64e+01    1.13e+04    1.00e+12
CAP:     0.00e+00    0.00e+00    0.00e+00    0.00e+00    0.00e+00

Name:    d:u2:3      d:u1:1      d:u1:2      d:u1:3
Model:    u2:dx     u1:d4mod    u1:d2mod    u1:d3mod
Id:     -3.44e-13    5.55e-16   -7.00e-09   -1.29e-12
Vd:     -3.43e-01    0.00e+00   -2.50e+00   -1.28e+00
Req:     1.00e+12    7.39e+06    1.00e+12    1.00e+12
CAP:     0.00e+00    4.00e-12    1.91e-12    0.00e+00

                        --- Bipolar Transistors ---
Name:       q2          q1          q6          q7          q9
Model:    bc547b      bc547b      bc547b      bc547b      bc547b
Ib:       2.90e-06    3.10e-06    6.42e-06    6.52e-06    3.49e-06
Ic:       9.04e-04    9.23e-04    1.83e-03    1.83e-03    1.03e-03
Vbe:      6.34e-01    6.35e-01    6.55e-01    6.55e-01    6.39e-01
Vbc:     -6.29e+00   -3.28e+00   -1.03e+00    0.00e+00   -2.83e+00
Vce:      6.92e+00    3.91e+00    1.68e+00    6.55e-01    3.47e+00
BetaDC:   3.11e+02    2.97e+02    2.86e+02    2.81e+02    2.95e+02
Gm:       3.44e-02    3.51e-02    6.93e-02    6.91e-02    3.92e-02
Rpi:      9.01e+03    8.43e+03    4.07e+03    4.01e+03    7.49e+03
Rx:       1.00e+00    1.00e+00    1.00e+00    1.00e+00    1.00e+00
Ro:       7.51e+04    7.03e+04    3.42e+04    3.37e+04    6.25e+04
Cbe:      5.84e-11    5.95e-11    8.33e-11    8.34e-11    6.27e-11
Cbc:      1.00e-12    1.20e-12    1.59e-12    2.31e-12    1.25e-12
Cjs:      0.00e+00    0.00e+00    0.00e+00    0.00e+00    0.00e+00
BetaAC:   3.10e+02    2.96e+02    2.82e+02    2.77e+02    2.94e+02
Cbx:      6.17e-13    7.37e-13    9.75e-13    1.42e-12    7.66e-13
Ft:       9.13e+07    9.10e+07    1.28e+08    1.26e+08    9.64e+07

Name:       q8          q4          q3        qtip32a     q:u2:1
Model:    bc547b      bc557b      bc557b        pnp        u2:qx
Ib:       0.00e+00   -2.78e-06   -2.50e-06   -1.03e-03    4.81e-12
Ic:       7.54e-10   -8.99e-04   -9.27e-04   -1.03e-01   -4.62e-12
Vbe:      2.68e-01   -6.24e-01   -6.21e-01   -8.94e-01    1.99e-01
Vbc:     -5.51e+00    0.00e+00    3.01e+00    3.47e+00    4.62e+00
Vce:      5.78e+00   -6.24e-01   -3.63e+00   -4.36e+00   -4.42e+00
BetaDC:   0.00e+00    3.23e+02    3.71e+02    1.00e+02   -9.59e-01
Gm:       2.87e-08    3.40e-02    3.51e-02    3.99e+00    1.78e-18
Rpi:      6.04e+09    9.48e+03    1.05e+04    2.51e+01    1.00e+12
Rx:       1.00e+00    1.00e+00    1.00e+00    0.00e+00    0.00e+00
Ro:       9.09e+10    2.30e+04    2.56e+04    4.21e+72    8.08e+91
Cbe:      1.62e-11    5.13e-11    5.17e-11    0.00e+00    0.00e+00
Cbc:      1.04e-12    6.80e-12    2.01e-12    0.00e+00    0.00e+00
Cjs:      0.00e+00    0.00e+00    0.00e+00    0.00e+00    0.00e+00
BetaAC:   1.73e+02    3.23e+02    3.70e+02    1.00e+02    1.78e-06
Cbx:      6.40e-13    4.02e-12    1.19e-12    0.00e+00    0.00e+00
Ft:       2.56e+02    8.72e+07    1.02e+08    0.00e+00    0.00e+00

Name:     q:u2:2      q:u1:1      q:u1:2
Model:     u2:qx     u1:qn3904   u1:qn3904
Ib:      -8.99e-08    2.72e-06    1.42e-04
Ic:      -9.99e-05    2.32e-04    1.24e-02
Vbe:     -7.15e-01    6.09e-01    6.10e-01
Vbc:      3.65e+00   -1.23e+00   -1.89e+00
Vce:     -4.36e+00    1.83e+00    2.50e+00
BetaDC:   1.11e+03    8.54e+01    8.72e+01
Gm:       3.86e-03    8.89e-03    4.75e-01
Rpi:      2.88e+05    1.25e+04    2.38e+02
Rx:       0.00e+00    0.00e+00    0.00e+00
Ro:       5.06e+75    4.36e+05    8.21e+03
Cbe:      0.00e+00    1.04e-11    5.31e-10
Cbc:      0.00e+00    2.54e-12    1.16e-10
Cjs:      0.00e+00    0.00e+00    0.00e+00
BetaAC:   1.11e+03    1.11e+02    1.13e+02
Cbx:      0.00e+00    0.00e+00    0.00e+00
Ft:       0.00e+00    1.10e+08    1.17e+08


Total elapsed time: 0.128 seconds.

