Freq.	Ic(Q8)
Step Information: Cl=1ç  (Step: 1/2)
1.00000000000000e+00	(9.48942814735135e+01dB,-4.36096990060937e+00¯)
1.02329299228075e+00	(9.48929033289433e+01dB,-4.47875065446963e+00¯)
1.04712854805090e+00	(9.48914599856431e+01dB,-4.59885784603348e+00¯)
1.07151930523761e+00	(9.48899484491473e+01dB,-4.72135173518627e+00¯)
1.09647819614318e+00	(9.48883655859510e+01dB,-4.84629360601291e+00¯)
1.12201845430196e+00	(9.48867081188507e+01dB,-4.97374578324759e+00¯)
1.14815362149688e+00	(9.48849726199190e+01dB,-5.10377164700024e+00¯)
1.17489755493953e+00	(9.48831555037796e+01dB,-5.23643564709634e+00¯)
1.20226443461741e+00	(9.48812530212965e+01dB,-5.37180331708607e+00¯)
1.23026877081238e+00	(9.48792612524626e+01dB,-5.50994128715119e+00¯)
1.25892541179417e+00	(9.48771760983062e+01dB,-5.65091729566642e+00¯)
1.28824955169313e+00	(9.48749932744458e+01dB,-5.79480020099137e+00¯)
1.31825673855641e+00	(9.48727083019356e+01dB,-5.94165999065623e+00¯)
1.34896288259165e+00	(9.48703164997629e+01dB,-6.09156779062111e+00¯)
1.38038426460288e+00	(9.48678129759952e+01dB,-6.24459587257749e+00¯)
1.41253754462275e+00	(9.48651926188764e+01dB,-6.40081766000697e+00¯)
1.44543977074593e+00	(9.48624500876391e+01dB,-6.56030773275470e+00¯)
1.47910838816821e+00	(9.48595798032210e+01dB,-6.72314183011931e+00¯)
1.51356124843621e+00	(9.48565759378033e+01dB,-6.88939685152683e+00¯)
1.54881661891248e+00	(9.48534324046983e+01dB,-7.05915085574761e+00¯)
1.58489319246111e+00	(9.48501428483685e+01dB,-7.23248305843251e+00¯)
1.62181009735893e+00	(9.48467006325651e+01dB,-7.40947382615503e+00¯)
1.65958690743756e+00	(9.48430988296050e+01dB,-7.59020466921256e+00¯)
1.69824365246174e+00	(9.48393302082539e+01dB,-7.77475823094695e+00¯)
1.73780082874937e+00	(9.48353872222502e+01dB,-7.96321827511794e+00¯)
1.77827941003892e+00	(9.48312619969795e+01dB,-8.15566966891447e+00¯)
1.81970085860998e+00	(9.48269463175915e+01dB,-8.35219836436208e+00¯)
1.86208713666287e+00	(9.48224316150675e+01dB,-8.55289137470180e+00¯)
1.90546071796325e+00	(9.48177089529810e+01dB,-8.75783674803054e+00¯)
1.94984459975804e+00	(9.48127690137453e+01dB,-8.96712353684634e+00¯)
1.99526231496888e+00	(9.48076020840628e+01dB,-9.18084176292663e+00¯)
2.04173794466953e+00	(9.48021980401500e+01dB,-9.39908237779359e+00¯)
2.08929613085404e+00	(9.47965463332525e+01dB,-9.62193721905035e+00¯)
2.13796208950223e+00	(9.47906359739048e+01dB,-9.84949896066088e+00¯)
2.18776162394955e+00	(9.47844555164997e+01dB,-1.00818610584662e+01¯)
2.23872113856834e+00	(9.47779930432711e+01dB,-1.03191176896695e+01¯)
2.29086765276777e+00	(9.47712361485693e+01dB,-1.05613636869399e+01¯)
2.34422881531992e+00	(9.47641719214454e+01dB,-1.08086944643935e+01¯)
2.39883291901949e+00	(9.47567869302341e+01dB,-1.10612059395022e+01¯)
2.45470891568503e+00	(9.47490672048580e+01dB,-1.13189944453809e+01¯)
2.51188643150958e+00	(9.47409982199081e+01dB,-1.15821566366971e+01¯)
2.57039578276886e+00	(9.47325648782052e+01dB,-1.18507893885598e+01¯)
2.63026799189538e+00	(9.47237514929696e+01dB,-1.21249896854537e+01¯)
2.69153480392691e+00	(9.47145417711809e+01dB,-1.24048545031897e+01¯)
2.75422870333816e+00	(9.47049187961246e+01dB,-1.26904806806946e+01¯)
2.81838293126445e+00	(9.46948650107625e+01dB,-1.29819647834943e+01¯)
2.88403150312660e+00	(9.46843622007667e+01dB,-1.32794029567196e+01¯)
2.95120922666638e+00	(9.46733914783733e+01dB,-1.35828907689191e+01¯)
3.01995172040201e+00	(9.46619332658771e+01dB,-1.38925230443478e+01¯)
3.09029543251359e+00	(9.46499672798861e+01dB,-1.42083936849929e+01¯)
3.16227766016837e+00	(9.46374725168512e+01dB,-1.45305954827317e+01¯)
3.23593656929628e+00	(9.46244272379449e+01dB,-1.48592199180470e+01¯)
3.31131121482591e+00	(9.46108089558814e+01dB,-1.51943569490593e+01¯)
3.38844156139202e+00	(9.45965944216621e+01dB,-1.55360947870701e+01¯)
3.46736850452531e+00	(9.45817596134687e+01dB,-1.58845196620741e+01¯)
3.54813389233575e+00	(9.45662797253282e+01dB,-1.62397155735791e+01¯)
3.63078054770101e+00	(9.45501291586888e+01dB,-1.66017640321048e+01¯)
3.71535229097172e+00	(9.45332815140452e+01dB,-1.69707437857519e+01¯)
3.80189396320560e+00	(9.45157095855106e+01dB,-1.73467305370485e+01¯)
3.89045144994280e+00	(9.44973853556677e+01dB,-1.77297966446237e+01¯)
3.98107170553496e+00	(9.44782799944032e+01dB,-1.81200108169718e+01¯)
4.07380277804112e+00	(9.44583638579764e+01dB,-1.85174377906420e+01¯)
4.16869383470335e+00	(9.44376064917576e+01dB,-1.89221379998150e+01¯)
4.26579518801592e+00	(9.44159766354051e+01dB,-1.93341672349629e+01¯)
4.36515832240165e+00	(9.43934422300383e+01dB,-1.97535762896391e+01¯)
4.46683592150962e+00	(9.43699704294858e+01dB,-2.01804106003347e+01¯)
4.57088189614874e+00	(9.43455276139581e+01dB,-2.06147098761872e+01¯)
4.67735141287197e+00	(9.43200794076626e+01dB,-2.10565077224799e+01¯)
4.78630092322637e+00	(9.42935906993767e+01dB,-2.15058312563204e+01¯)
4.89778819368445e+00	(9.42660256677925e+01dB,-2.19627007198220e+01¯)
5.01187233627271e+00	(9.42373478099083e+01dB,-2.24271290874368e+01¯)
5.12861383991364e+00	(9.42075199742151e+01dB,-2.28991216731249e+01¯)
5.24807460249771e+00	(9.41765043981822e+01dB,-2.33786757374400e+01¯)
5.37031796370252e+00	(9.41442627497959e+01dB,-2.38657800954383e+01¯)
5.49540873857623e+00	(9.41107561746584e+01dB,-2.43604147313395e+01¯)
5.62341325190348e+00	(9.40759453465769e+01dB,-2.48625504161354e+01¯)
5.75439937337156e+00	(9.40397905246920e+01dB,-2.53721483390667e+01¯)
5.88843655355588e+00	(9.40022516136393e+01dB,-2.58891597452381e+01¯)
6.02559586074356e+00	(9.39632882304600e+01dB,-2.64135255930529e+01¯)
6.16595001861481e+00	(9.39228597751914e+01dB,-2.69451762250950e+01¯)
6.30957344480192e+00	(9.38809255068064e+01dB,-2.74840310606293e+01¯)
6.45654229034654e+00	(9.38374446243385e+01dB,-2.80299983127256e+01¯)
6.60693448007594e+00	(9.37923763522376e+01dB,-2.85829747304240e+01¯)
6.76082975391980e+00	(9.37456800302875e+01dB,-2.91428453706255e+01¯)
6.91830970918935e+00	(9.36973152080712e+01dB,-2.97094834037293e+01¯)
7.07945784384136e+00	(9.36472417436211e+01dB,-3.02827499559026e+01¯)
7.24435960074988e+00	(9.35954199050696e+01dB,-3.08624939878683e+01¯)
7.41310241300916e+00	(9.35418104764759e+01dB,-3.14485522188622e+01¯)
7.58577575029182e+00	(9.34863748660917e+01dB,-3.20407490938271e+01¯)
7.76247116628690e+00	(9.34290752171747e+01dB,-3.26388967985892e+01¯)
7.94328234724279e+00	(9.33698745201494e+01dB,-3.32427953227199e+01¯)
8.12830516164097e+00	(9.33087367276042e+01dB,-3.38522325808369e+01¯)
8.31763771102669e+00	(9.32456268679090e+01dB,-3.44669845791013e+01¯)
8.51138038202374e+00	(9.31805111601617e+01dB,-3.50868156424381e+01¯)
8.70963589956078e+00	(9.31133571284184e+01dB,-3.57114786980671e+01¯)
8.91250938133743e+00	(9.30441337137785e+01dB,-3.63407156127165e+01¯)
9.12010839355907e+00	(9.29728113850341e+01dB,-3.69742575900322e+01¯)
9.33254300796988e+00	(9.28993622456434e+01dB,-3.76118256213251e+01¯)
9.54992586021433e+00	(9.28237601377127e+01dB,-3.82531309954248e+01¯)
9.77237220955808e+00	(9.27459807406770e+01dB,-3.88978758589033e+01¯)
9.99999999999997e+00	(9.26660016657016e+01dB,-3.95457538335812e+01¯)
1.02329299228075e+01	(9.25838025429569e+01dB,-4.01964506780557e+01¯)
1.04712854805090e+01	(9.24993651029302e+01dB,-4.08496449999681e+01¯)
1.07151930523760e+01	(9.24126732503767e+01dB,-4.15050090117309e+01¯)
1.09647819614318e+01	(9.23237131297079e+01dB,-4.21622093225682e+01¯)
1.12201845430196e+01	(9.22324731819742e+01dB,-4.28209077660961e+01¯)
1.14815362149688e+01	(9.21389441936095e+01dB,-4.34807622629895e+01¯)
1.17489755493953e+01	(9.20431193342126e+01dB,-4.41414276995896e+01¯)
1.20226443461741e+01	(9.19449941857701e+01dB,-4.48025568336985e+01¯)
1.23026877081238e+01	(9.18445667613815e+01dB,-4.54638012114817e+01¯)
1.25892541179416e+01	(9.17418375131447e+01dB,-4.61248120884469e+01¯)
1.28824955169313e+01	(9.16368093309640e+01dB,-4.67852413604691e+01¯)
1.31825673855640e+01	(9.15294875297083e+01dB,-4.74447424818640e+01¯)
1.34896288259165e+01	(9.14198798269516e+01dB,-4.81029713785494e+01¯)
1.38038426460288e+01	(9.13079963108409e+01dB,-4.87595873466255e+01¯)
1.41253754462275e+01	(9.11938493974735e+01dB,-4.94142539236233e+01¯)
1.44543977074592e+01	(9.10774537798840e+01dB,-5.00666397402398e+01¯)
1.47910838816820e+01	(9.09588263672552e+01dB,-5.07164193332210e+01¯)
1.51356124843620e+01	(9.08379862163718e+01dB,-5.13632739266536e+01¯)
1.54881661891248e+01	(9.07149544552228e+01dB,-5.20068921718992e+01¯)
1.58489319246111e+01	(9.05897541989074e+01dB,-5.26469708383395e+01¯)
1.62181009735892e+01	(9.04624104600372e+01dB,-5.32832154642867e+01¯)
1.65958690743755e+01	(9.03329500523900e+01dB,-5.39153409484153e+01¯)
1.69824365246174e+01	(9.02014014903301e+01dB,-5.45430720948169e+01¯)
1.73780082874937e+01	(9.00677948834617e+01dB,-5.51661440981917e+01¯)
1.77827941003892e+01	(8.99321618284171e+01dB,-5.57843029784939e+01¯)
1.81970085860998e+01	(8.97945352974408e+01dB,-5.63973059539003e+01¯)
1.86208713666286e+01	(8.96549495252201e+01dB,-5.70049217580270e+01¯)
1.90546071796324e+01	(8.95134398947646e+01dB,-5.76069309027564e+01¯)
1.94984459975804e+01	(8.93700428226946e+01dB,-5.82031258836392e+01¯)
1.99526231496887e+01	(8.92247956445880e+01dB,-5.87933113283793e+01¯)
2.04173794466952e+01	(8.90777365017221e+01dB,-5.93773040974112e+01¯)
2.08929613085403e+01	(8.89289042288390e+01dB,-5.99549333277577e+01¯)
2.13796208950222e+01	(8.87783382442463e+01dB,-6.05260404307086e+01¯)
2.18776162394954e+01	(8.86260784424841e+01dB,-6.10904790423788e+01¯)
2.23872113856833e+01	(8.84721650902270e+01dB,-6.16481149323623e+01¯)
2.29086765276776e+01	(8.83166387252212e+01dB,-6.21988258663748e+01¯)
2.34422881531991e+01	(8.81595400594423e+01dB,-6.27425014350219e+01¯)
2.39883291901948e+01	(8.80009098863859e+01dB,-6.32790428477915e+01¯)
2.45470891568502e+01	(8.78407889926133e+01dB,-6.38083626935358e+01¯)
2.51188643150957e+01	(8.76792180738722e+01dB,-6.43303846717187e+01¯)
2.57039578276885e+01	(8.75162376562405e+01dB,-6.48450433019656e+01¯)
2.63026799189537e+01	(8.73518880217745e+01dB,-6.53522836061482e+01¯)
2.69153480392690e+01	(8.71862091394202e+01dB,-6.58520607758910e+01¯)
2.75422870333815e+01	(8.70192406008036e+01dB,-6.63443398224733e+01¯)
2.81838293126444e+01	(8.68510215607071e+01dB,-6.68290952096068e+01¯)
2.88403150312659e+01	(8.66815906829758e+01dB,-6.73063104829445e+01¯)
2.95120922666637e+01	(8.65109860907505e+01dB,-6.77759778839975e+01¯)
3.01995172040200e+01	(8.63392453217171e+01dB,-6.82380979626699e+01¯)
3.09029543251358e+01	(8.61664052879124e+01dB,-6.86926791853974e+01¯)
3.16227766016837e+01	(8.59925022399429e+01dB,-6.91397375413534e+01¯)
3.23593656929627e+01	(8.58175717356119e+01dB,-6.95792961506275e+01¯)
3.31131121482590e+01	(8.56416486125186e+01dB,-7.00113848728160e+01¯)
3.38844156139201e+01	(8.54647669647212e+01dB,-7.04360399208319e+01¯)
3.46736850452530e+01	(8.52869601231522e+01dB,-7.08533034811020e+01¯)
3.54813389233574e+01	(8.51082606394442e+01dB,-7.12632233374751e+01¯)
3.63078054770100e+01	(8.49287002732884e+01dB,-7.16658525069607e+01¯)
3.71535229097171e+01	(8.47483099826666e+01dB,-7.20612488788624e+01¯)
3.80189396320559e+01	(8.45671199173283e+01dB,-7.24494748700774e+01¯)
3.89045144994279e+01	(8.43851594146850e+01dB,-7.28305970848062e+01¯)
3.98107170553495e+01	(8.42024569984402e+01dB,-7.32046859891183e+01¯)
4.07380277804111e+01	(8.40190403793969e+01dB,-7.35718155944030e+01¯)
4.16869383470333e+01	(8.38349364584893e+01dB,-7.39320631542000e+01¯)
4.26579518801591e+01	(8.36501713317216e+01dB,-7.42855088725076e+01¯)
4.36515832240164e+01	(8.34647702968426e+01dB,-7.46322356234746e+01¯)
4.46683592150961e+01	(8.32787578616455e+01dB,-7.49723286841287e+01¯)
4.57088189614873e+01	(8.30921577536769e+01dB,-7.53058754789271e+01¯)
4.67735141287196e+01	(8.29049929312897e+01dB,-7.56329653383638e+01¯)
4.78630092322636e+01	(8.27172855956509e+01dB,-7.59536892651804e+01¯)
4.89778819368444e+01	(8.25290572039454e+01dB,-7.62681397180762e+01¯)
5.01187233627270e+01	(8.23403284832645e+01dB,-7.65764104027413e+01¯)
5.12861383991362e+01	(8.21511194453386e+01dB,-7.68785960772505e+01¯)
5.24807460249770e+01	(8.19614494018585e+01dB,-7.71747923676557e+01¯)
5.37031796370250e+01	(8.17713369802273e+01dB,-7.74650955927770e+01¯)
5.49540873857622e+01	(8.15808001398779e+01dB,-7.77496026030281e+01¯)
5.62341325190346e+01	(8.13898561888271e+01dB,-7.80284106277830e+01¯)
5.75439937337154e+01	(8.11985218004363e+01dB,-7.83016171307146e+01¯)
5.88843655355586e+01	(8.10068130304682e+01dB,-7.85693196794565e+01¯)
6.02559586074355e+01	(8.08147453340700e+01dB,-7.88316158185238e+01¯)
6.16595001861479e+01	(8.06223335829624e+01dB,-7.90886029567301e+01¯)
6.30957344480190e+01	(8.04295920824742e+01dB,-7.93403782589305e+01¯)
6.45654229034652e+01	(8.02365345885831e+01dB,-7.95870385479610e+01¯)
6.60693448007593e+01	(8.00431743248078e+01dB,-7.98286802138586e+01¯)
6.76082975391978e+01	(7.98495239989045e+01dB,-8.00653991288957e+01¯)
6.91830970918933e+01	(7.96555958194660e+01dB,-8.02972905731801e+01¯)
7.07945784384134e+01	(7.94614015121624e+01dB,-8.05244491620080e+01¯)
7.24435960074986e+01	(7.92669523358322e+01dB,-8.07469687839605e+01¯)
7.41310241300914e+01	(7.90722590982439e+01dB,-8.09649425424451e+01¯)
7.58577575029180e+01	(7.88773321715610e+01dB,-8.11784627036496e+01¯)
7.76247116628688e+01	(7.86821815074662e+01dB,-8.13876206485203e+01¯)
7.94328234724277e+01	(7.84868166520182e+01dB,-8.15925068325566e+01¯)
8.12830516164095e+01	(7.82912467600732e+01dB,-8.17932107468639e+01¯)
8.31763771102667e+01	(7.80954806094279e+01dB,-8.19898208866970e+01¯)
8.51138038202372e+01	(7.78995266145461e+01dB,-8.21824247216910e+01¯)
8.70963589956076e+01	(7.77033928399469e+01dB,-8.23711086716209e+01¯)
8.91250938133741e+01	(7.75070870132081e+01dB,-8.25559580853046e+01¯)
9.12010839355905e+01	(7.73106165375881e+01dB,-8.27370572224771e+01¯)
9.33254300796986e+01	(7.71139885042902e+01dB,-8.29144892390655e+01¯)
9.54992586021431e+01	(7.69172097043408e+01dB,-8.30883361762629e+01¯)
9.77237220955805e+01	(7.67202866401002e+01dB,-8.32586789512833e+01¯)
9.99999999999995e+01	(7.65232255363957e+01dB,-8.34255973508917e+01¯)
1.02329299228075e+02	(7.63260323513020e+01dB,-8.35891700280602e+01¯)
1.04712854805089e+02	(7.61287127865370e+01dB,-8.37494744994822e+01¯)
1.07151930523760e+02	(7.59312722975411e+01dB,-8.39065871470905e+01¯)
1.09647819614318e+02	(7.57337161031664e+01dB,-8.40605832194559e+01¯)
1.12201845430196e+02	(7.55360491950350e+01dB,-8.42115368361135e+01¯)
1.14815362149688e+02	(7.53382763465776e+01dB,-8.43595209932346e+01¯)
1.17489755493952e+02	(7.51404021217181e+01dB,-8.45046075711388e+01¯)
1.20226443461741e+02	(7.49424308832440e+01dB,-8.46468673422551e+01¯)
1.23026877081237e+02	(7.47443668008728e+01dB,-8.47863699815465e+01¯)
1.25892541179416e+02	(7.45462138589880e+01dB,-8.49231840767641e+01¯)
1.28824955169313e+02	(7.43479758641018e+01dB,-8.50573771413018e+01¯)
1.31825673855640e+02	(7.41496564520066e+01dB,-8.51890156265002e+01¯)
1.34896288259165e+02	(7.39512590946485e+01dB,-8.53181649359223e+01¯)
1.38038426460288e+02	(7.37527871067319e+01dB,-8.54448894399323e+01¯)
1.41253754462275e+02	(7.35542436520447e+01dB,-8.55692524907130e+01¯)
1.44543977074592e+02	(7.33556317495332e+01dB,-8.56913164386820e+01¯)
1.47910838816820e+02	(7.31569542791203e+01dB,-8.58111426491127e+01¯)
1.51356124843620e+02	(7.29582139872833e+01dB,-8.59287915192473e+01¯)
1.54881661891247e+02	(7.27594134923876e+01dB,-8.60443224953001e+01¯)
1.58489319246110e+02	(7.25605552897960e+01dB,-8.61577940914639e+01¯)
1.62181009735892e+02	(7.23616417567559e+01dB,-8.62692639072251e+01¯)
1.65958690743755e+02	(7.21626751570711e+01dB,-8.63787886470312e+01¯)
1.69824365246173e+02	(7.19636576455613e+01dB,-8.64864241385786e+01¯)
1.73780082874936e+02	(7.17645912723263e+01dB,-8.65922253522881e+01¯)
1.77827941003891e+02	(7.15654779868088e+01dB,-8.66962464203257e+01¯)
1.81970085860997e+02	(7.13663196416765e+01dB,-8.67985406569173e+01¯)
1.86208713666286e+02	(7.11671179965055e+01dB,-8.68991605772063e+01¯)
1.90546071796323e+02	(7.09678747213136e+01dB,-8.69981579177187e+01¯)
1.94984459975803e+02	(7.07685913998936e+01dB,-8.70955836559787e+01¯)
1.99526231496887e+02	(7.05692695330001e+01dB,-8.71914880301728e+01¯)
2.04173794466952e+02	(7.03699105413703e+01dB,-8.72859205600023e+01¯)
2.08929613085403e+02	(7.01705157685856e+01dB,-8.73789300658683e+01¯)
2.13796208950222e+02	(6.99710864837918e+01dB,-8.74705646892805e+01¯)
2.18776162394954e+02	(6.97716238842656e+01dB,-8.75608719129805e+01¯)
2.23872113856832e+02	(6.95721290978433e+01dB,-8.76498985804521e+01¯)
2.29086765276776e+02	(6.93726031852092e+01dB,-8.77376909166122e+01¯)
2.34422881531991e+02	(6.91730471420599e+01dB,-8.78242945469922e+01¯)
2.39883291901947e+02	(6.89734619011259e+01dB,-8.79097545181624e+01¯)
2.45470891568501e+02	(6.87738483340778e+01dB,-8.79941153172015e+01¯)
2.51188643150956e+02	(6.85742072533079e+01dB,-8.80774208914084e+01¯)
2.57039578276885e+02	(6.83745394135923e+01dB,-8.81597146679888e+01¯)
2.63026799189536e+02	(6.81748455136352e+01dB,-8.82410395733308e+01¯)
2.69153480392690e+02	(6.79751261975017e+01dB,-8.83214380532762e+01¯)
2.75422870333815e+02	(6.77753820559412e+01dB,-8.84009520911963e+01¯)
2.81838293126443e+02	(6.75756136276020e+01dB,-8.84796232278968e+01¯)
2.88403150312659e+02	(6.73758214001384e+01dB,-8.85574925809941e+01¯)
2.95120922666637e+02	(6.71760058112117e+01dB,-8.86346008635339e+01¯)
3.01995172040200e+02	(6.69761672494032e+01dB,-8.87109884024439e+01¯)
3.09029543251357e+02	(6.67763060550042e+01dB,-8.87866951582361e+01¯)
3.16227766016836e+02	(6.65764225207291e+01dB,-8.88617607427145e+01¯)
3.23593656929626e+02	(6.63765168923210e+01dB,-8.89362244378339e+01¯)
3.31131121482589e+02	(6.61765893690494e+01dB,-8.90101252150062e+01¯)
3.38844156139200e+02	(6.59766401041462e+01dB,-8.90835017510543e+01¯)
3.46736850452529e+02	(6.57766692051132e+01dB,-8.91563924484569e+01¯)
3.54813389233573e+02	(6.55766767339455e+01dB,-8.92288354528109e+01¯)
3.63078054770099e+02	(6.53766627072781e+01dB,-8.93008686699940e+01¯)
3.71535229097170e+02	(6.51766270964133e+01dB,-8.93725297847031e+01¯)
3.80189396320558e+02	(6.49765698272853e+01dB,-8.94438562771052e+01¯)
3.89045144994278e+02	(6.47764907802962e+01dB,-8.95148854414094e+01¯)
3.98107170553494e+02	(6.45763897900917e+01dB,-8.95856544022059e+01¯)
4.07380277804110e+02	(6.43762666452261e+01dB,-8.96562001319985e+01¯)
4.16869383470332e+02	(6.41761210877317e+01dB,-8.97265594687661e+01¯)
4.26579518801589e+02	(6.39759528126156e+01dB,-8.97967691307928e+01¯)
4.36515832240163e+02	(6.37757614672200e+01dB,-8.98668657362932e+01¯)
4.46683592150960e+02	(6.35755466505272e+01dB,-8.99368858177968e+01¯)
4.57088189614872e+02	(6.33753079123453e+01dB,-9.00068658396139e+01¯)
4.67735141287195e+02	(6.31750447524086e+01dB,-9.00768422123727e+01¯)
4.78630092322635e+02	(6.29747566193434e+01dB,-9.01468513118689e+01¯)
4.89778819368442e+02	(6.27744429095789e+01dB,-9.02169294927281e+01¯)
5.01187233627268e+02	(6.25741029661282e+01dB,-9.02871131041920e+01¯)
5.12861383991361e+02	(6.23737360772541e+01dB,-9.03574385068413e+01¯)
5.24807460249769e+02	(6.21733414750453e+01dB,-9.04279420869360e+01¯)
5.37031796370249e+02	(6.19729183338798e+01dB,-9.04986602711406e+01¯)
5.49540873857620e+02	(6.17724657687483e+01dB,-9.05696295431583e+01¯)
5.62341325190345e+02	(6.15719828335174e+01dB,-9.06408864552813e+01¯)
5.75439937337152e+02	(6.13714685189982e+01dB,-9.07124676462242e+01¯)
5.88843655355584e+02	(6.11709217509621e+01dB,-9.07844098525724e+01¯)
6.02559586074353e+02	(6.09703413879948e+01dB,-9.08567499233692e+01¯)
6.16595001861477e+02	(6.07697262192224e+01dB,-9.09295248340803e+01¯)
6.30957344480188e+02	(6.05690749619150e+01dB,-9.10027716993592e+01¯)
6.45654229034650e+02	(6.03683862589606e+01dB,-9.10765277854325e+01¯)
6.60693448007591e+02	(6.01676586761671e+01dB,-9.11508305239259e+01¯)
6.76082975391976e+02	(5.99668906994714e+01dB,-9.12257175218354e+01¯)
6.91830970918931e+02	(5.97660807319441e+01dB,-9.13012265753776e+01¯)
7.07945784384132e+02	(5.95652270906905e+01dB,-9.13773956795979e+01¯)
7.24435960074984e+02	(5.93643280035604e+01dB,-9.14542630398033e+01¯)
7.41310241300911e+02	(5.91633816057235e+01dB,-9.15318670811495e+01¯)
7.58577575029177e+02	(5.89623859360496e+01dB,-9.16102464590123e+01¯)
