Freq.	V(a)
Step Information: Cl=1”  (Step: 1/2)
1.00000000000000e+00	(6.06994255877515e+01dB,1.79529146141247e+02°)
1.02329299228075e+00	(6.06994091075575e+01dB,1.79516076977872e+02°)
1.04712854805090e+00	(6.06993918393358e+01dB,1.79502751295515e+02°)
1.07151930523761e+00	(6.06993737464679e+01dB,1.79489162033262e+02°)
1.09647819614318e+00	(6.06993547905871e+01dB,1.79475301990772e+02°)
1.12201845430196e+00	(6.06993349314968e+01dB,1.79461163824478e+02°)
1.14815362149688e+00	(6.06993141270860e+01dB,1.79446740043720e+02°)
1.17489755493953e+00	(6.06992923332396e+01dB,1.79432023006803e+02°)
1.20226443461741e+00	(6.06992695037452e+01dB,1.79417004916968e+02°)
1.23026877081238e+00	(6.06992455901952e+01dB,1.79401677818295e+02°)
1.25892541179417e+00	(6.06992205418840e+01dB,1.79386033591512e+02°)
1.28824955169313e+00	(6.06991943057009e+01dB,1.79370063949729e+02°)
1.31825673855641e+00	(6.06991668260175e+01dB,1.79353760434079e+02°)
1.34896288259165e+00	(6.06991380445699e+01dB,1.79337114409275e+02°)
1.38038426460288e+00	(6.06991079003353e+01dB,1.79320117059075e+02°)
1.41253754462275e+00	(6.06990763294027e+01dB,1.79302759381652e+02°)
1.44543977074593e+00	(6.06990432648379e+01dB,1.79285032184872e+02°)
1.47910838816821e+00	(6.06990086365414e+01dB,1.79266926081473e+02°)
1.51356124843621e+00	(6.06989723711003e+01dB,1.79248431484145e+02°)
1.54881661891248e+00	(6.06989343916328e+01dB,1.79229538600506e+02°)
1.58489319246111e+00	(6.06988946176253e+01dB,1.79210237427979e+02°)
1.62181009735893e+00	(6.06988529647624e+01dB,1.79190517748553e+02°)
1.65958690743756e+00	(6.06988093447480e+01dB,1.79170369123447e+02°)
1.69824365246174e+00	(6.06987636651191e+01dB,1.79149780887649e+02°)
1.73780082874937e+00	(6.06987158290496e+01dB,1.79128742144351e+02°)
1.77827941003892e+00	(6.06986657351457e+01dB,1.79107241759264e+02°)
1.81970085860998e+00	(6.06986132772316e+01dB,1.79085268354810e+02°)
1.86208713666287e+00	(6.06985583441248e+01dB,1.79062810304201e+02°)
1.90546071796325e+00	(6.06985008194010e+01dB,1.79039855725381e+02°)
1.94984459975804e+00	(6.06984405811481e+01dB,1.79016392474853e+02°)
1.99526231496888e+00	(6.06983775017082e+01dB,1.78992408141366e+02°)
2.04173794466953e+00	(6.06983114474083e+01dB,1.78967890039480e+02°)
2.08929613085404e+00	(6.06982422782773e+01dB,1.78942825202983e+02°)
2.13796208950223e+00	(6.06981698477508e+01dB,1.78917200378180e+02°)
2.18776162394955e+00	(6.06980940023610e+01dB,1.78891002017037e+02°)
2.23872113856834e+00	(6.06980145814130e+01dB,1.78864216270180e+02°)
2.29086765276777e+00	(6.06979314166452e+01dB,1.78836828979751e+02°)
2.34422881531992e+00	(6.06978443318743e+01dB,1.78808825672110e+02°)
2.39883291901949e+00	(6.06977531426235e+01dB,1.78780191550388e+02°)
2.45470891568503e+00	(6.06976576557329e+01dB,1.78750911486886e+02°)
2.51188643150958e+00	(6.06975576689524e+01dB,1.78720970015309e+02°)
2.57039578276886e+00	(6.06974529705152e+01dB,1.78690351322846e+02°)
2.63026799189538e+00	(6.06973433386907e+01dB,1.78659039242086e+02°)
2.69153480392691e+00	(6.06972285413180e+01dB,1.78627017242760e+02°)
2.75422870333816e+00	(6.06971083353162e+01dB,1.78594268423321e+02°)
2.81838293126445e+00	(6.06969824661721e+01dB,1.78560775502351e+02°)
2.88403150312660e+00	(6.06968506674050e+01dB,1.78526520809783e+02°)
2.95120922666638e+00	(6.06967126600051e+01dB,1.78491486277962e+02°)
3.01995172040201e+00	(6.06965681518465e+01dB,1.78455653432509e+02°)
3.09029543251359e+00	(6.06964168370729e+01dB,1.78419003383007e+02°)
3.16227766016837e+00	(6.06962583954542e+01dB,1.78381516813509e+02°)
3.23593656929628e+00	(6.06960924917137e+01dB,1.78343173972840e+02°)
3.31131121482591e+00	(6.06959187748234e+01dB,1.78303954664725e+02°)
3.38844156139202e+00	(6.06957368772672e+01dB,1.78263838237713e+02°)
3.46736850452531e+00	(6.06955464142689e+01dB,1.78222803574907e+02°)
3.54813389233575e+00	(6.06953469829858e+01dB,1.78180829083495e+02°)
3.63078054770101e+00	(6.06951381616631e+01dB,1.78137892684086e+02°)
3.71535229097172e+00	(6.06949195087507e+01dB,1.78093971799835e+02°)
3.80189396320560e+00	(6.06946905619778e+01dB,1.78049043345366e+02°)
3.89045144994280e+00	(6.06944508373858e+01dB,1.78003083715499e+02°)
3.98107170553496e+00	(6.06941998283154e+01dB,1.77956068773753e+02°)
4.07380277804112e+00	(6.06939370043476e+01dB,1.77907973840650e+02°)
4.16869383470335e+00	(6.06936618101955e+01dB,1.77858773681811e+02°)
4.26579518801592e+00	(6.06933736645449e+01dB,1.77808442495839e+02°)
4.36515832240165e+00	(6.06930719588418e+01dB,1.77756953901982e+02°)
4.46683592150962e+00	(6.06927560560240e+01dB,1.77704280927604e+02°)
4.57088189614874e+00	(6.06924252891940e+01dB,1.77650395995422e+02°)
4.67735141287197e+00	(6.06920789602314e+01dB,1.77595270910555e+02°)
4.78630092322637e+00	(6.06917163383412e+01dB,1.77538876847344e+02°)
4.89778819368445e+00	(6.06913366585364e+01dB,1.77481184335974e+02°)
5.01187233627271e+00	(6.06909391200503e+01dB,1.77422163248886e+02°)
5.12861383991364e+00	(6.06905228846763e+01dB,1.77361782786987e+02°)
5.24807460249771e+00	(6.06900870750332e+01dB,1.77300011465653e+02°)
5.37031796370252e+00	(6.06896307727500e+01dB,1.77236817100541e+02°)
5.49540873857623e+00	(6.06891530165688e+01dB,1.77172166793198e+02°)
5.62341325190348e+00	(6.06886528003620e+01dB,1.77106026916488e+02°)
5.75439937337156e+00	(6.06881290710588e+01dB,1.77038363099830e+02°)
5.88843655355588e+00	(6.06875807264788e+01dB,1.76969140214263e+02°)
6.02559586074356e+00	(6.06870066130675e+01dB,1.76898322357336e+02°)
6.16595001861481e+00	(6.06864055235295e+01dB,1.76825872837836e+02°)
6.30957344480192e+00	(6.06857761943564e+01dB,1.76751754160365e+02°)
6.45654229034654e+00	(6.06851173032426e+01dB,1.76675928009773e+02°)
6.60693448007594e+00	(6.06844274663863e+01dB,1.76598355235461e+02°)
6.76082975391980e+00	(6.06837052356706e+01dB,1.76518995835559e+02°)
6.91830970918935e+00	(6.06829490957182e+01dB,1.76437808941007e+02°)
7.07945784384136e+00	(6.06821574608163e+01dB,1.76354752799540e+02°)
7.24435960074988e+00	(6.06813286717052e+01dB,1.76269784759607e+02°)
7.41310241300916e+00	(6.06804609922256e+01dB,1.76182861254230e+02°)
7.58577575029182e+00	(6.06795526058186e+01dB,1.76093937784835e+02°)
7.76247116628690e+00	(6.06786016118726e+01dB,1.76002968905068e+02°)
7.94328234724279e+00	(6.06776060219107e+01dB,1.75909908204631e+02°)
8.12830516164097e+00	(6.06765637556129e+01dB,1.75814708293151e+02°)
8.31763771102669e+00	(6.06754726366660e+01dB,1.75717320784126e+02°)
8.51138038202374e+00	(6.06743303884348e+01dB,1.75617696278965e+02°)
8.70963589956078e+00	(6.06731346294483e+01dB,1.75515784351174e+02°)
8.91250938133743e+00	(6.06718828686926e+01dB,1.75411533530703e+02°)
9.12010839355907e+00	(6.06705725007042e+01dB,1.75304891288512e+02°)
9.33254300796988e+00	(6.06692008004578e+01dB,1.75195804021396e+02°)
9.54992586021433e+00	(6.06677649180364e+01dB,1.75084217037107e+02°)
9.77237220955808e+00	(6.06662618730822e+01dB,1.74970074539832e+02°)
9.99999999999997e+00	(6.06646885490162e+01dB,1.74853319616080e+02°)
1.02329299228075e+01	(6.06630416870198e+01dB,1.74733894221037e+02°)
1.04712854805090e+01	(6.06613178797705e+01dB,1.74611739165446e+02°)
1.07151930523760e+01	(6.06595135649241e+01dB,1.74486794103084e+02°)
1.09647819614318e+01	(6.06576250183341e+01dB,1.74358997518918e+02°)
1.12201845430196e+01	(6.06556483470011e+01dB,1.74228286717994e+02°)
1.14815362149688e+01	(6.06535794817428e+01dB,1.74094597815163e+02°)
1.17489755493953e+01	(6.06514141695782e+01dB,1.73957865725730e+02°)
1.20226443461741e+01	(6.06491479658158e+01dB,1.73818024157110e+02°)
1.23026877081238e+01	(6.06467762258392e+01dB,1.73675005601601e+02°)
1.25892541179416e+01	(6.06442940965808e+01dB,1.73528741330384e+02°)
1.28824955169313e+01	(6.06416965076783e+01dB,1.73379161388858e+02°)
1.31825673855640e+01	(6.06389781623025e+01dB,1.73226194593434e+02°)
1.34896288259165e+01	(6.06361335276532e+01dB,1.73069768529931e+02°)
1.38038426460288e+01	(6.06331568251138e+01dB,1.72909809553691e+02°)
1.41253754462275e+01	(6.06300420200589e+01dB,1.72746242791575e+02°)
1.44543977074592e+01	(6.06267828113092e+01dB,1.72578992145996e+02°)
1.47910838816820e+01	(6.06233726202280e+01dB,1.72407980301145e+02°)
1.51356124843620e+01	(6.06198045794542e+01dB,1.72233128731591e+02°)
1.54881661891248e+01	(6.06160715212696e+01dB,1.72054357713444e+02°)
1.58489319246111e+01	(6.06121659655959e+01dB,1.71871586338258e+02°)
1.62181009735892e+01	(6.06080801076199e+01dB,1.71684732529902e+02°)
1.65958690743755e+01	(6.06038058050471e+01dB,1.71493713064599e+02°)
1.69824365246174e+01	(6.05993345649828e+01dB,1.71298443594363e+02°)
1.73780082874937e+01	(6.05946575304450e+01dB,1.71098838674077e+02°)
1.77827941003892e+01	(6.05897654665104e+01dB,1.70894811792453e+02°)
1.81970085860998e+01	(6.05846487461005e+01dB,1.70686275407146e+02°)
1.86208713666286e+01	(6.05792973354160e+01dB,1.70473140984279e+02°)
1.90546071796324e+01	(6.05737007790273e+01dB,1.70255319042683e+02°)
1.94984459975804e+01	(6.05678481846362e+01dB,1.70032719203122e+02°)
1.99526231496887e+01	(6.05617282073994e+01dB,1.69805250242977e+02°)
2.04173794466952e+01	(6.05553290345640e+01dB,1.69572820155832e+02°)
2.08929613085403e+01	(6.05486383686093e+01dB,1.69335336218437e+02°)
2.13796208950222e+01	(6.05416434113553e+01dB,1.69092705062537e+02°)
2.18776162394954e+01	(6.05343308472387e+01dB,1.68844832754040e+02°)
2.23872113856833e+01	(6.05266868265205e+01dB,1.68591624879034e+02°)
2.29086765276776e+01	(6.05186969483405e+01dB,1.68332986637157e+02°)
2.34422881531991e+01	(6.05103462436593e+01dB,1.68068822942681e+02°)
2.39883291901948e+01	(6.05016191581360e+01dB,1.67799038533689e+02°)
2.45470891568502e+01	(6.04924995349914e+01dB,1.67523538089714e+02°)
2.51188643150957e+01	(6.04829705979171e+01dB,1.67242226358224e+02°)
2.57039578276885e+01	(6.04730149340922e+01dB,1.66955008290314e+02°)
2.63026799189537e+01	(6.04626144773789e+01dB,1.66661789185991e+02°)
2.69153480392690e+01	(6.04517504915362e+01dB,1.66362474849776e+02°)
2.75422870333815e+01	(6.04404035549604e+01dB,1.66056971754718e+02°)
2.81838293126444e+01	(6.04285535434803e+01dB,1.65745187220803e+02°)
2.88403150312659e+01	(6.04161796159429e+01dB,1.65427029600767e+02°)
2.95120922666637e+01	(6.04032601998326e+01dB,1.65102408478031e+02°)
3.01995172040200e+01	(6.03897729767050e+01dB,1.64771234877763e+02°)
3.09029543251358e+01	(6.03756948696714e+01dB,1.64433421487709e+02°)
3.16227766016837e+01	(6.03610020313032e+01dB,1.64088882891966e+02°)
3.23593656929627e+01	(6.03456698327963e+01dB,1.63737535816639e+02°)
3.31131121482590e+01	(6.03296728544345e+01dB,1.63379299387711e+02°)
3.38844156139201e+01	(6.03129848775028e+01dB,1.63014095401129e+02°)
3.46736850452530e+01	(6.02955788778172e+01dB,1.62641848605119e+02°)
3.54813389233574e+01	(6.02774270210441e+01dB,1.62262486994588e+02°)
3.63078054770100e+01	(6.02585006598761e+01dB,1.61875942117712e+02°)
3.71535229097171e+01	(6.02387703339307e+01dB,1.61482149392942e+02°)
3.80189396320559e+01	(6.02182057708631e+01dB,1.61081048439730e+02°)
3.89045144994279e+01	(6.01967758911631e+01dB,1.60672583417625e+02°)
3.98107170553495e+01	(6.01744488151326e+01dB,1.60256703376779e+02°)
4.07380277804111e+01	(6.01511918729328e+01dB,1.59833362617691e+02°)
4.16869383470333e+01	(6.01269716176822e+01dB,1.59402521059853e+02°)
4.26579518801591e+01	(6.01017538424745e+01dB,1.58964144616666e+02°)
4.36515832240164e+01	(6.00755035996498e+01dB,1.58518205580110e+02°)
4.46683592150961e+01	(6.00481852260304e+01dB,1.58064683005107e+02°)
4.57088189614873e+01	(6.00197623693939e+01dB,1.57603563104547e+02°)
4.67735141287196e+01	(5.99901980210720e+01dB,1.57134839641472e+02°)
4.78630092322636e+01	(5.99594545533854e+01dB,1.56658514319929e+02°)
4.89778819368444e+01	(5.99274937585781e+01dB,1.56174597182466e+02°)
5.01187233627270e+01	(5.98942768955915e+01dB,1.55683106995060e+02°)
5.12861383991362e+01	(5.98597647398784e+01dB,1.55184071630707e+02°)
5.24807460249770e+01	(5.98239176389053e+01dB,1.54677528442058e+02°)
5.37031796370250e+01	(5.97866955715372e+01dB,1.54163524626104e+02°)
5.49540873857622e+01	(5.97480582133164e+01dB,1.53642117572224e+02°)
5.62341325190346e+01	(5.97079650066934e+01dB,1.53113375193452e+02°)
5.75439937337154e+01	(5.96663752352798e+01dB,1.52577376241037e+02°)
5.88843655355586e+01	(5.96232481038772e+01dB,1.52034210593331e+02°)
6.02559586074355e+01	(5.95785428232320e+01dB,1.51483979518747e+02°)
6.16595001861479e+01	(5.95322186984886e+01dB,1.50926795912750e+02°)
6.30957344480190e+01	(5.94842352229008e+01dB,1.50362784499602e+02°)
6.45654229034652e+01	(5.94345521756321e+01dB,1.49792081998672e+02°)
6.60693448007593e+01	(5.93831297224006e+01dB,1.49214837255849e+02°)
6.76082975391978e+01	(5.93299285209675e+01dB,1.48631211328182e+02°)
6.91830970918933e+01	(5.92749098279500e+01dB,1.48041377530728e+02°)
7.07945784384134e+01	(5.92180356105519e+01dB,1.47445521426905e+02°)
7.24435960074986e+01	(5.91592686570217e+01dB,1.46843840782750e+02°)
7.41310241300914e+01	(5.90985726918133e+01dB,1.46236545456271e+02°)
7.58577575029180e+01	(5.90359124892233e+01dB,1.45623857243061e+02°)
7.76247116628688e+01	(5.89712539887764e+01dB,1.45006009660190e+02°)
7.94328234724277e+01	(5.89045644086832e+01dB,1.44383247680161e+02°)
8.12830516164095e+01	(5.88358123591586e+01dB,1.43755827403161e+02°)
8.31763771102667e+01	(5.87649679535219e+01dB,1.43124015673059e+02°)
8.51138038202372e+01	(5.86920029157804e+01dB,1.42488089640286e+02°)
8.70963589956076e+01	(5.86168906850126e+01dB,1.41848336267288e+02°)
8.91250938133741e+01	(5.85396065160441e+01dB,1.41205051776160e+02°)
9.12010839355905e+01	(5.84601275747555e+01dB,1.40558541044656e+02°)
9.33254300796986e+01	(5.83784330264812e+01dB,1.39909116957467e+02°)
9.54992586021431e+01	(5.82945041193191e+01dB,1.39257099702342e+02°)
9.77237220955805e+01	(5.82083242594151e+01dB,1.38602816026104e+02°)
9.99999999999995e+01	(5.81198790785330e+01dB,1.37946598449647e+02°)
1.02329299228075e+02	(5.80291564931732e+01dB,1.37288784447026e+02°)
1.04712854805089e+02	(5.79361467546004e+01dB,1.36629715594225e+02°)
1.07151930523760e+02	(5.78408424901347e+01dB,1.35969736687719e+02°)
1.09647819614318e+02	(5.77432387333488e+01dB,1.35309194850666e+02°)
1.12201845430196e+02	(5.76433329453841e+01dB,1.34648438617059e+02°)
1.14815362149688e+02	(5.75411250263099e+01dB,1.33987817004634e+02°)
1.17489755493952e+02	(5.74366173144123e+01dB,1.33327678596121e+02°)
1.20226443461741e+02	(5.73298145768809e+01dB,1.32668370612059e+02°)
1.23026877081237e+02	(5.72207239901815e+01dB,1.32010237992300e+02°)
1.25892541179416e+02	(5.71093551087584e+01dB,1.31353622503594e+02°)
1.28824955169313e+02	(5.69957198258310e+01dB,1.30698861854138e+02°)
1.31825673855640e+02	(5.68798323240671e+01dB,1.30046288838297e+02°)
1.34896288259165e+02	(5.67617090165381e+01dB,1.29396230517800e+02°)
1.38038426460288e+02	(5.66413684804106e+01dB,1.28749007429008e+02°)
1.41253754462275e+02	(5.65188313818574e+01dB,1.28104932836618e+02°)
1.44543977074592e+02	(5.63941203939452e+01dB,1.27464312029106e+02°)
1.47910838816820e+02	(5.62672601081302e+01dB,1.26827441659420e+02°)
1.51356124843620e+02	(5.61382769391048e+01dB,1.26194609142233e+02°)
1.54881661891247e+02	(5.60071990255507e+01dB,1.25566092094590e+02°)
1.58489319246110e+02	(5.58740561258230e+01dB,1.24942157836650e+02°)
1.62181009735892e+02	(5.57388795096681e+01dB,1.24323062951693e+02°)
1.65958690743755e+02	(5.56017018480304e+01dB,1.23709052894107e+02°)
1.69824365246173e+02	(5.54625571002883e+01dB,1.23100361658702e+02°)
1.73780082874936e+02	(5.53214803999772e+01dB,1.22497211508639e+02°)
1.77827941003891e+02	(5.51785079402397e+01dB,1.21899812756399e+02°)
1.81970085860997e+02	(5.50336768590780e+01dB,1.21308363602770e+02°)
1.86208713666286e+02	(5.48870251259026e+01dB,1.20723050023808e+02°)
1.90546071796323e+02	(5.47385914287936e+01dB,1.20144045716594e+02°)
1.94984459975803e+02	(5.45884150639984e+01dB,1.19571512091849e+02°)
1.99526231496887e+02	(5.44365358284675e+01dB,1.19005598307310e+02°)
2.04173794466952e+02	(5.42829939142804e+01dB,1.18446441357825e+02°)
2.08929613085403e+02	(5.41278298071593e+01dB,1.17894166199454e+02°)
2.13796208950222e+02	(5.39710841890978e+01dB,1.17348885907567e+02°)
2.18776162394954e+02	(5.38127978437891e+01dB,1.16810701886380e+02°)
2.23872113856832e+02	(5.36530115680323e+01dB,1.16279704090707e+02°)
2.29086765276776e+02	(5.34917660862972e+01dB,1.15755971294721e+02°)
2.34422881531991e+02	(5.33291019708235e+01dB,1.15239571376582e+02°)
2.39883291901947e+02	(5.31650595664670e+01dB,1.14730561627234e+02°)
2.45470891568501e+02	(5.29996789201068e+01dB,1.14228989084203e+02°)
2.51188643150956e+02	(5.28329997155385e+01dB,1.13734890874970e+02°)
2.57039578276885e+02	(5.26650612127998e+01dB,1.13248294581969e+02°)
2.63026799189536e+02	(5.24959021928898e+01dB,1.12769218612001e+02°)
2.69153480392690e+02	(5.23255609071001e+01dB,1.12297672577840e+02°)
2.75422870333815e+02	(5.21540750308983e+01dB,1.11833657689475e+02°)
2.81838293126443e+02	(5.19814816230293e+01dB,1.11377167140151e+02°)
2.88403150312659e+02	(5.18078170886350e+01dB,1.10928186501640e+02°)
2.95120922666637e+02	(5.16331171466992e+01dB,1.10486694119959e+02°)
3.01995172040200e+02	(5.14574168021451e+01dB,1.10052661500750e+02°)
3.09029543251357e+02	(5.12807503213111e+01dB,1.09626053701367e+02°)
3.16227766016836e+02	(5.11031512115943e+01dB,1.09206829711416e+02°)
3.23593656929626e+02	(5.09246522045973e+01dB,1.08794942828336e+02°)
3.31131121482589e+02	(5.07452852426309e+01dB,1.08390341025944e+02°)
3.38844156139200e+02	(5.05650814683971e+01dB,1.07992967314368e+02°)
3.46736850452529e+02	(5.03840712177421e+01dB,1.07602760088604e+02°)
3.54813389233573e+02	(5.02022840148748e+01dB,1.07219653472980e+02°)
3.63078054770099e+02	(5.00197485706412e+01dB,1.06843577644874e+02°)
3.71535229097170e+02	(4.98364927826748e+01dB,1.06474459157080e+02°)
3.80189396320558e+02	(4.96525437380967e+01dB,1.06112221240708e+02°)
3.89045144994278e+02	(4.94679277178561e+01dB,1.05756784103530e+02°)
3.98107170553494e+02	(4.92826702031980e+01dB,1.05408065209117e+02°)
4.07380277804110e+02	(4.90967958835626e+01dB,1.05065979548113e+02°)
4.16869383470332e+02	(4.89103286659358e+01dB,1.04730439897720e+02°)
4.26579518801589e+02	(4.87232916857941e+01dB,1.04401357061905e+02°)
4.36515832240163e+02	(4.85357073186900e+01dB,1.04078640112171e+02°)
4.46683592150960e+02	(4.83475971933380e+01dB,1.03762196604441e+02°)
4.57088189614872e+02	(4.81589822053927e+01dB,1.03451932788854e+02°)
4.67735141287195e+02	(4.79698825319049e+01dB,1.03147753810226e+02°)
4.78630092322635e+02	(4.77803176465852e+01dB,1.02849563892916e+02°)
4.89778819368442e+02	(4.75903063355086e+01dB,1.02557266517237e+02°)
5.01187233627268e+02	(4.73998667132774e+01dB,1.02270764584757e+02°)
5.12861383991361e+02	(4.72090162395545e+01dB,1.01989960572365e+02°)
5.24807460249769e+02	(4.70177717358122e+01dB,1.01714756677753e+02°)
5.37031796370249e+02	(4.68261494022765e+01dB,1.01445054954999e+02°)
5.49540873857620e+02	(4.66341648350400e+01dB,1.01180757439048e+02°)
5.62341325190345e+02	(4.64418330431478e+01dB,1.00921766263808e+02°)
5.75439937337152e+02	(4.62491684657437e+01dB,1.00667983769256e+02°)
5.88843655355584e+02	(4.60561849890858e+01dB,1.00419312602817e+02°)
6.02559586074353e+02	(4.58628959634610e+01dB,1.00175655812660e+02°)
6.16595001861477e+02	(4.56693142200745e+01dB,9.99369169292834e+01°)
6.30957344480188e+02	(4.54754520875298e+01dB,9.97030000476786e+01°)
6.45654229034650e+02	(4.52813214082792e+01dB,9.94738098960501e+01°)
6.60693448007591e+02	(4.50869335547562e+01dB,9.92492519005204e+01°)
6.76082975391976e+02	(4.48922994451787e+01dB,9.90292322459678e+01°)
6.91830970918931e+02	(4.46974295591372e+01dB,9.88136579282084e+01°)
7.07945784384132e+02	(4.45023339528631e+01dB,9.86024368004175e+01°)
7.24435960074984e+02	(4.43070222740891e+01dB,9.83954776182652e+01°)
7.41310241300911e+02	(4.41115037766366e+01dB,9.81926900770672e+01°)
7.58577575029177e+02	(4.39157873346650e+01dB,9.79939848438349e+01°)
7.76247116628685e+02	(4.37198814564729e+01dB,9.77992735888963e+01°)
7.94328234724275e+02	(4.35237942980209e+01dB,9.76084690097430e+01°)
8.12830516164092e+02	(4.33275336760343e+01dB,9.74214848533554e+01°)
8.31763771102664e+02	(4.31311070807775e+01dB,9.72382359329044e+01°)
