Freq.	V(a)
Step Information: Cl=1”  (Step: 1/2)
1.00000000000000e+02	(6.06997718469382e+01dB,1.79891994353332e+02°)
1.02329299228075e+02	(6.06997714290688e+01dB,1.79889457558455e+02°)
1.04712854805090e+02	(6.06997709912599e+01dB,1.79886862152725e+02°)
1.07151930523761e+02	(6.06997705330852e+01dB,1.79884206760035e+02°)
1.09647819614318e+02	(6.06997700533226e+01dB,1.79881489972478e+02°)
1.12201845430196e+02	(6.06997695505775e+01dB,1.79878710349599e+02°)
1.14815362149688e+02	(6.06997690245385e+01dB,1.79875866417617e+02°)
1.17489755493953e+02	(6.06997684737130e+01dB,1.79872956668663e+02°)
1.20226443461741e+02	(6.06997678965563e+01dB,1.79869979559976e+02°)
1.23026877081238e+02	(6.06997672925986e+01dB,1.79866933513070e+02°)
1.25892541179417e+02	(6.06997666600565e+01dB,1.79863816912918e+02°)
1.28824955169313e+02	(6.06997659974642e+01dB,1.79860628107086e+02°)
1.31825673855641e+02	(6.06997653039190e+01dB,1.79857365404850e+02°)
1.34896288259165e+02	(6.06997645775735e+01dB,1.79854027076316e+02°)
1.38038426460288e+02	(6.06997638170136e+01dB,1.79850611351488e+02°)
1.41253754462275e+02	(6.06997630206269e+01dB,1.79847116419339e+02°)
1.44543977074593e+02	(6.06997621865994e+01dB,1.79843540426848e+02°)
1.47910838816821e+02	(6.06997613135397e+01dB,1.79839881478011e+02°)
1.51356124843621e+02	(6.06997603990944e+01dB,1.79836137632855e+02°)
1.54881661891248e+02	(6.06997594414501e+01dB,1.79832306906386e+02°)
1.58489319246111e+02	(6.06997584390793e+01dB,1.79828387267546e+02°)
1.62181009735893e+02	(6.06997573893545e+01dB,1.79824376638148e+02°)
1.65958690743756e+02	(6.06997562899238e+01dB,1.79820272891762e+02°)
1.69824365246174e+02	(6.06997551387083e+01dB,1.79816073852583e+02°)
1.73780082874937e+02	(6.06997539332666e+01dB,1.79811777294290e+02°)
1.77827941003892e+02	(6.06997526711697e+01dB,1.79807380938859e+02°)
1.81970085860998e+02	(6.06997513493642e+01dB,1.79802882455361e+02°)
1.86208713666287e+02	(6.06997499654248e+01dB,1.79798279458716e+02°)
1.90546071796324e+02	(6.06997485164174e+01dB,1.79793569508439e+02°)
1.94984459975804e+02	(6.06997469986422e+01dB,1.79788750107351e+02°)
1.99526231496888e+02	(6.06997454096350e+01dB,1.79783818700229e+02°)
2.04173794466953e+02	(6.06997437459012e+01dB,1.79778772672481e+02°)
2.08929613085404e+02	(6.06997420032855e+01dB,1.79773609348759e+02°)
2.13796208950223e+02	(6.06997401790988e+01dB,1.79768325991503e+02°)
2.18776162394955e+02	(6.06997382684689e+01dB,1.79762919799552e+02°)
2.23872113856834e+02	(6.06997362680979e+01dB,1.79757387906598e+02°)
2.29086765276777e+02	(6.06997341734945e+01dB,1.79751727379708e+02°)
2.34422881531992e+02	(6.06997319799665e+01dB,1.79745935217758e+02°)
2.39883291901949e+02	(6.06997296832400e+01dB,1.79740008349831e+02°)
2.45470891568503e+02	(6.06997272780693e+01dB,1.79733943633610e+02°)
2.51188643150958e+02	(6.06997247597318e+01dB,1.79727737853690e+02°)
2.57039578276886e+02	(6.06997221225121e+01dB,1.79721387719900e+02°)
2.63026799189538e+02	(6.06997193609445e+01dB,1.79714889865535e+02°)
2.69153480392691e+02	(6.06997164696769e+01dB,1.79708240845576e+02°)
2.75422870333816e+02	(6.06997134418259e+01dB,1.79701437134896e+02°)
2.81838293126445e+02	(6.06997102712239e+01dB,1.79694475126347e+02°)
2.88403150312660e+02	(6.06997069515256e+01dB,1.79687351128865e+02°)
2.95120922666638e+02	(6.06997034749394e+01dB,1.79680061365544e+02°)
3.01995172040201e+02	(6.06996998347232e+01dB,1.79672601971580e+02°)
3.09029543251358e+02	(6.06996960230342e+01dB,1.79664968992267e+02°)
3.16227766016837e+02	(6.06996920316654e+01dB,1.79657158380889e+02°)
3.23593656929628e+02	(6.06996878521550e+01dB,1.79649165996572e+02°)
3.31131121482590e+02	(6.06996834756426e+01dB,1.79640987602093e+02°)
3.38844156139202e+02	(6.06996788927245e+01dB,1.79632618861639e+02°)
3.46736850452531e+02	(6.06996740943127e+01dB,1.79624055338488e+02°)
3.54813389233575e+02	(6.06996690693551e+01dB,1.79615292492717e+02°)
3.63078054770101e+02	(6.06996638077015e+01dB,1.79606325678723e+02°)
3.71535229097172e+02	(6.06996582978203e+01dB,1.79597150142821e+02°)
3.80189396320560e+02	(6.06996525286591e+01dB,1.79587761020677e+02°)
3.89045144994280e+02	(6.06996464874847e+01dB,1.79578153334789e+02°)
3.98107170553496e+02	(6.06996401616156e+01dB,1.79568321991807e+02°)
4.07380277804112e+02	(6.06996335377667e+01dB,1.79558261779845e+02°)
4.16869383470335e+02	(6.06996266010165e+01dB,1.79547967365762e+02°)
4.26579518801592e+02	(6.06996193380411e+01dB,1.79537433292232e+02°)
4.36515832240165e+02	(6.06996117326907e+01dB,1.79526653974993e+02°)
4.46683592150962e+02	(6.06996037687162e+01dB,1.79515623699804e+02°)
4.57088189614874e+02	(6.06995954297373e+01dB,1.79504336619422e+02°)
4.67735141287197e+02	(6.06995866976994e+01dB,1.79492786750554e+02°)
4.78630092322637e+02	(6.06995775540914e+01dB,1.79480967970651e+02°)
4.89778819368445e+02	(6.06995679795290e+01dB,1.79468874014679e+02°)
5.01187233627271e+02	(6.06995579535902e+01dB,1.79456498471811e+02°)
5.12861383991364e+02	(6.06995474552727e+01dB,1.79443834782015e+02°)
5.24807460249771e+02	(6.06995364624471e+01dB,1.79430876232601e+02°)
5.37031796370251e+02	(6.06995249514334e+01dB,1.79417615954687e+02°)
5.49540873857623e+02	(6.06995128979549e+01dB,1.79404046919528e+02°)
5.62341325190348e+02	(6.06995002762099e+01dB,1.79390161934831e+02°)
5.75439937337155e+02	(6.06994870598191e+01dB,1.79375953640916e+02°)
5.88843655355587e+02	(6.06994732208926e+01dB,1.79361414506851e+02°)
6.02559586074356e+02	(6.06994587292146e+01dB,1.79346536826517e+02°)
6.16595001861481e+02	(6.06994435550711e+01dB,1.79331312714398e+02°)
6.30957344480192e+02	(6.06994276656690e+01dB,1.79315734101576e+02°)
6.45654229034654e+02	(6.06994110272015e+01dB,1.79299792731369e+02°)
6.60693448007594e+02	(6.06993936050270e+01dB,1.79283480154958e+02°)
6.76082975391980e+02	(6.06993753618388e+01dB,1.79266787727002e+02°)
6.91830970918935e+02	(6.06993562584659e+01dB,1.79249706601039e+02°)
7.07945784384136e+02	(6.06993362551679e+01dB,1.79232227724742e+02°)
7.24435960074988e+02	(6.06993153092946e+01dB,1.79214341835251e+02°)
7.41310241300916e+02	(6.06992933759462e+01dB,1.79196039454250e+02°)
7.58577575029182e+02	(6.06992704093866e+01dB,1.79177310882883e+02°)
7.76247116628690e+02	(6.06992463605600e+01dB,1.79158146196767e+02°)
7.94328234724279e+02	(6.06992211784930e+01dB,1.79138535240673e+02°)
8.12830516164097e+02	(6.06991948094353e+01dB,1.79118467623217e+02°)
8.31763771102669e+02	(6.06991671983764e+01dB,1.79097932711281e+02°)
8.51138038202374e+02	(6.06991382855399e+01dB,1.79076919624617e+02°)
8.70963589956078e+02	(6.06991080105257e+01dB,1.79055417229849e+02°)
8.91250938133743e+02	(6.06990763086664e+01dB,1.79033414134830e+02°)
9.12010839355907e+02	(6.06990431127748e+01dB,1.79010898682526e+02°)
9.33254300796988e+02	(6.06990083528736e+01dB,1.78987858944880e+02°)
9.54992586021433e+02	(6.06989719550462e+01dB,1.78964282716607e+02°)
9.77237220955808e+02	(6.06989338421553e+01dB,1.78940157508714e+02°)
9.99999999999997e+02	(6.06988939329291e+01dB,1.78915470541988e+02°)
1.02329299228075e+03	(6.06988521432954e+01dB,1.78890208740164e+02°)
1.04712854805090e+03	(6.06988083848216e+01dB,1.78864358723158e+02°)
1.07151930523760e+03	(6.06987625641521e+01dB,1.78837906800070e+02°)
1.09647819614318e+03	(6.06987145843164e+01dB,1.78810838961885e+02°)
1.12201845430196e+03	(6.06986643440218e+01dB,1.78783140874149e+02°)
1.14815362149688e+03	(6.06986117363099e+01dB,1.78754797869556e+02°)
1.17489755493953e+03	(6.06985566492086e+01dB,1.78725794940182e+02°)
1.20226443461741e+03	(6.06984989671285e+01dB,1.78696116729481e+02°)
1.23026877081238e+03	(6.06984385672267e+01dB,1.78665747524539e+02°)
1.25892541179416e+03	(6.06983753209053e+01dB,1.78634671247700e+02°)
1.28824955169313e+03	(6.06983090947963e+01dB,1.78602871448044e+02°)
1.31825673855640e+03	(6.06982397487213e+01dB,1.78570331292944e+02°)
1.34896288259165e+03	(6.06981671350166e+01dB,1.78537033559319e+02°)
1.38038426460288e+03	(6.06980911002320e+01dB,1.78502960624448e+02°)
1.41253754462275e+03	(6.06980114825474e+01dB,1.78468094457007e+02°)
1.44543977074592e+03	(6.06979281143159e+01dB,1.78432416607375e+02°)
1.47910838816820e+03	(6.06978408176940e+01dB,1.78395908198446e+02°)
1.51356124843620e+03	(6.06977494090370e+01dB,1.78358549915304e+02°)
1.54881661891248e+03	(6.06976536933602e+01dB,1.78320321995742e+02°)
1.58489319246111e+03	(6.06975534688286e+01dB,1.78281204219459e+02°)
1.62181009735892e+03	(6.06974485225606e+01dB,1.78241175897996e+02°)
1.65958690743755e+03	(6.06973386319382e+01dB,1.78200215863818e+02°)
1.69824365246174e+03	(6.06972235650145e+01dB,1.78158302459242e+02°)
1.73780082874937e+03	(6.06971030772644e+01dB,1.78115413525584e+02°)
1.77827941003892e+03	(6.06969769135776e+01dB,1.78071526391403e+02°)
1.81970085860998e+03	(6.06968448070946e+01dB,1.78026617860882e+02°)
1.86208713666286e+03	(6.06967064778890e+01dB,1.77980664201982e+02°)
1.90546071796324e+03	(6.06965616325050e+01dB,1.77933641134224e+02°)
1.94984459975804e+03	(6.06964099645927e+01dB,1.77885523816039e+02°)
1.99526231496887e+03	(6.06962511536357e+01dB,1.77836286832116e+02°)
2.04173794466952e+03	(6.06960848618911e+01dB,1.77785904180735e+02°)
2.08929613085403e+03	(6.06959107380718e+01dB,1.77734349259841e+02°)
2.13796208950222e+03	(6.06957284140972e+01dB,1.77681594853821e+02°)
2.18776162394954e+03	(6.06955375028115e+01dB,1.77627613119897e+02°)
2.23872113856833e+03	(6.06953376006842e+01dB,1.77572375573419e+02°)
2.29086765276776e+03	(6.06951282850808e+01dB,1.77515853073699e+02°)
2.34422881531991e+03	(6.06949091122420e+01dB,1.77458015809462e+02°)
2.39883291901948e+03	(6.06946796191146e+01dB,1.77398833283319e+02°)
2.45470891568502e+03	(6.06944393192414e+01dB,1.77338274296941e+02°)
2.51188643150957e+03	(6.06941877051281e+01dB,1.77276306934779e+02°)
2.57039578276885e+03	(6.06939242444190e+01dB,1.77212898548547e+02°)
2.63026799189537e+03	(6.06936483794066e+01dB,1.77148015740802e+02°)
2.69153480392690e+03	(6.06933595268671e+01dB,1.77081624348097e+02°)
2.75422870333815e+03	(6.06930570765887e+01dB,1.77013689424033e+02°)
2.81838293126444e+03	(6.06927403884635e+01dB,1.76944175222278e+02°)
2.88403150312659e+03	(6.06924087932785e+01dB,1.76873045178479e+02°)
2.95120922666637e+03	(6.06920615900653e+01dB,1.76800261892519e+02°)
3.01995172040200e+03	(6.06916980456379e+01dB,1.76725787109962e+02°)
3.09029543251358e+03	(6.06913173913053e+01dB,1.76649581703746e+02°)
3.16227766016836e+03	(6.06909188236507e+01dB,1.76571605654617e+02°)
3.23593656929627e+03	(6.06905015009760e+01dB,1.76491818032153e+02°)
3.31131121482590e+03	(6.06900645415470e+01dB,1.76410176975039e+02°)
3.38844156139201e+03	(6.06896070231389e+01dB,1.76326639670634e+02°)
3.46736850452530e+03	(6.06891279802410e+01dB,1.76241162334722e+02°)
3.54813389233574e+03	(6.06886264021742e+01dB,1.76153700190670e+02°)
3.63078054770100e+03	(6.06881012302435e+01dB,1.76064207448463e+02°)
3.71535229097171e+03	(6.06875513571712e+01dB,1.75972637282751e+02°)
3.80189396320559e+03	(6.06869756246765e+01dB,1.75878941810982e+02°)
3.89045144994279e+03	(6.06863728180714e+01dB,1.75783072072016e+02°)
3.98107170553495e+03	(6.06857416672606e+01dB,1.75684978002579e+02°)
4.07380277804111e+03	(6.06850808427401e+01dB,1.75584608414719e+02°)
4.16869383470333e+03	(6.06843889537336e+01dB,1.75481910972267e+02°)
4.26579518801591e+03	(6.06836645420703e+01dB,1.75376832168244e+02°)
4.36515832240164e+03	(6.06829060848279e+01dB,1.75269317299193e+02°)
4.46683592150961e+03	(6.06821119859407e+01dB,1.75159310442555e+02°)
4.57088189614873e+03	(6.06812805760602e+01dB,1.75046754431123e+02°)
4.67735141287196e+03	(6.06804101067602e+01dB,1.74931590828961e+02°)
4.78630092322636e+03	(6.06794987502196e+01dB,1.74813759905144e+02°)
4.89778819368444e+03	(6.06785445918625e+01dB,1.74693200609570e+02°)
5.01187233627270e+03	(6.06775456294655e+01dB,1.74569850546207e+02°)
5.12861383991362e+03	(6.06764997664608e+01dB,1.74443645948108e+02°)
5.24807460249770e+03	(6.06754048098119e+01dB,1.74314521650456e+02°)
5.37031796370250e+03	(6.06742584653276e+01dB,1.74182411064262e+02°)
5.49540873857622e+03	(6.06730583315252e+01dB,1.74047246150379e+02°)
5.62341325190346e+03	(6.06718018962962e+01dB,1.73908957392205e+02°)
5.75439937337154e+03	(6.06704865301081e+01dB,1.73767473769544e+02°)
5.88843655355586e+03	(6.06691094842347e+01dB,1.73622722730177e+02°)
6.02559586074354e+03	(6.06676678808847e+01dB,1.73474630164681e+02°)
6.16595001861479e+03	(6.06661587100935e+01dB,1.73323120378274e+02°)
6.30957344480190e+03	(6.06645788234896e+01dB,1.73168116063846e+02°)
6.45654229034652e+03	(6.06629249275572e+01dB,1.73009538275180e+02°)
6.60693448007592e+03	(6.06611935775085e+01dB,1.72847306399877e+02°)
6.76082975391978e+03	(6.06593811701296e+01dB,1.72681338132765e+02°)
6.91830970918932e+03	(6.06574839360881e+01dB,1.72511549449670e+02°)
7.07945784384134e+03	(6.06554979353199e+01dB,1.72337854579729e+02°)
7.24435960074986e+03	(6.06534190447415e+01dB,1.72160165981773e+02°)
7.41310241300913e+03	(6.06512429560023e+01dB,1.71978394315757e+02°)
7.58577575029179e+03	(6.06489651610571e+01dB,1.71792448420895e+02°)
7.76247116628687e+03	(6.06465809487472e+01dB,1.71602235288269e+02°)
7.94328234724277e+03	(6.06440853925557e+01dB,1.71407660038671e+02°)
8.12830516164094e+03	(6.06414733422304e+01dB,1.71208625898862e+02°)
8.31763771102666e+03	(6.06387394136739e+01dB,1.71005034179431e+02°)
8.51138038202371e+03	(6.06358779809265e+01dB,1.70796784252041e+02°)
8.70963589956075e+03	(6.06328831620338e+01dB,1.70583773531239e+02°)
8.91250938133740e+03	(6.06297488106054e+01dB,1.70365897453720e+02°)
9.12010839355904e+03	(6.06264685043338e+01dB,1.70143049460430e+02°)
9.33254300796985e+03	(6.06230355314758e+01dB,1.69915120981240e+02°)
9.54992586021430e+03	(6.06194428807386e+01dB,1.69682001418632e+02°)
9.77237220955804e+03	(6.06156832278595e+01dB,1.69443578135006e+02°)
9.99999999999993e+03	(6.06117489217230e+01dB,1.69199736441950e+02°)
1.02329299228075e+04	(6.06076319712485e+01dB,1.68950359590747e+02°)
1.04712854805089e+04	(6.06033240326601e+01dB,1.68695328764416e+02°)
1.07151930523760e+04	(6.05988163915639e+01dB,1.68434523075839e+02°)
1.09647819614318e+04	(6.05940999513361e+01dB,1.68167819563376e+02°)
1.12201845430196e+04	(6.05891652158065e+01dB,1.67895093193351e+02°)
1.14815362149688e+04	(6.05840022727973e+01dB,1.67616216864707e+02°)
1.17489755493952e+04	(6.05786007789969e+01dB,1.67331061415477e+02°)
1.20226443461740e+04	(6.05729499413525e+01dB,1.67039495635385e+02°)
1.23026877081237e+04	(6.05670384996735e+01dB,1.66741386280970e+02°)
1.25892541179416e+04	(6.05608547110471e+01dB,1.66436598092716e+02°)
1.28824955169313e+04	(6.05543863263559e+01dB,1.66124993823422e+02°)
1.31825673855640e+04	(6.05476205739114e+01dB,1.65806434264566e+02°)
1.34896288259164e+04	(6.05405441410925e+01dB,1.65480778278950e+02°)
1.38038426460288e+04	(6.05331431500909e+01dB,1.65147882844181e+02°)
1.41253754462274e+04	(6.05254031421197e+01dB,1.64807603093212e+02°)
1.44543977074592e+04	(6.05173090521989e+01dB,1.64459792370003e+02°)
1.47910838816820e+04	(6.05088451885179e+01dB,1.64104302286863e+02°)
1.51356124843620e+04	(6.04999952122057e+01dB,1.63740982787733e+02°)
1.54881661891247e+04	(6.04907421127900e+01dB,1.63369682223075e+02°)
1.58489319246110e+04	(6.04810681856039e+01dB,1.62990247430204e+02°)
1.62181009735892e+04	(6.04709550098104e+01dB,1.62602523820681e+02°)
1.65958690743755e+04	(6.04603834234590e+01dB,1.62206355479502e+02°)
1.69824365246173e+04	(6.04493335007078e+01dB,1.61801585270616e+02°)
1.73780082874936e+04	(6.04377845277455e+01dB,1.61388054953288e+02°)
1.77827941003891e+04	(6.04257149776000e+01dB,1.60965605309792e+02°)
1.81970085860997e+04	(6.04131024875162e+01dB,1.60534076280222e+02°)
1.86208713666285e+04	(6.03999238331799e+01dB,1.60093307112285e+02°)
1.90546071796323e+04	(6.03861549050551e+01dB,1.59643136519891e+02°)
1.94984459975803e+04	(6.03717706861773e+01dB,1.59183402851593e+02°)
1.99526231496887e+04	(6.03567452256276e+01dB,1.58713944277635e+02°)
2.04173794466951e+04	(6.03410516154798e+01dB,1.58234598985496e+02°)
2.08929613085402e+04	(6.03246619703194e+01dB,1.57745205385107e+02°)
2.13796208950222e+04	(6.03075474015005e+01dB,1.57245602336170e+02°)
2.18776162394954e+04	(6.02896779982750e+01dB,1.56735629379905e+02°)
2.23872113856832e+04	(6.02710228028873e+01dB,1.56215126995559e+02°)
2.29086765276776e+04	(6.02515497962027e+01dB,1.55683936855879e+02°)
2.34422881531990e+04	(6.02312258750157e+01dB,1.55141902112138e+02°)
2.39883291901947e+04	(6.02100168339756e+01dB,1.54588867688716e+02°)
2.45470891568501e+04	(6.01878873520034e+01dB,1.54024680587017e+02°)
2.51188643150956e+04	(6.01648009772882e+01dB,1.53449190209083e+02°)
2.57039578276884e+04	(6.01407201134251e+01dB,1.52862248697189e+02°)
2.63026799189536e+04	(6.01156060086333e+01dB,1.52263711286095e+02°)
2.69153480392689e+04	(6.00894187494835e+01dB,1.51653436664908e+02°)
2.75422870333814e+04	(6.00621172535828e+01dB,1.51031287359143e+02°)
2.81838293126443e+04	(6.00336592650370e+01dB,1.50397130126054e+02°)
2.88403150312658e+04	(6.00040013568528e+01dB,1.49750836354236e+02°)
2.95120922666636e+04	(5.99730989310469e+01dB,1.49092282485871e+02°)
3.01995172040199e+04	(5.99409062239906e+01dB,1.48421350446271e+02°)
3.09029543251357e+04	(5.99073763198243e+01dB,1.47737928073118e+02°)
3.16227766016835e+04	(5.98724611579200e+01dB,1.47041909575571e+02°)
3.23593656929626e+04	(5.98361115538794e+01dB,1.46333195979603e+02°)
3.31131121482588e+04	(5.97982772181409e+01dB,1.45611695593679e+02°)
3.38844156139200e+04	(5.97589067832914e+01dB,1.44877324468456e+02°)
3.46736850452529e+04	(5.97179478318436e+01dB,1.44130006868280e+02°)
3.54813389233573e+04	(5.96753469321132e+01dB,1.43369675734710e+02°)
3.63078054770098e+04	(5.96310496753300e+01dB,1.42596273157035e+02°)
3.71535229097169e+04	(5.95850007204029e+01dB,1.41809750831870e+02°)
3.80189396320558e+04	(5.95371438437625e+01dB,1.41010070515616e+02°)
3.89045144994277e+04	(5.94874219911764e+01dB,1.40197204476107e+02°)
3.98107170553494e+04	(5.94357773371027e+01dB,1.39371135926035e+02°)
4.07380277804109e+04	(5.93821513486562e+01dB,1.38531859442966e+02°)
4.16869383470332e+04	(5.93264848531242e+01dB,1.37679381376333e+02°)
4.26579518801589e+04	(5.92687181115398e+01dB,1.36813720231163e+02°)
4.36515832240162e+04	(5.92087908974156e+01dB,1.35934907027584e+02°)
4.46683592150959e+04	(5.91466425774138e+01dB,1.35042985642788e+02°)
4.57088189614871e+04	(5.90822122000272e+01dB,1.34138013113256e+02°)
4.67735141287194e+04	(5.90154385845081e+01dB,1.33220059917871e+02°)
4.78630092322634e+04	(5.89462604168544e+01dB,1.32289210216770e+02°)
4.89778819368442e+04	(5.88746163443093e+01dB,1.31345562070582e+02°)
5.01187233627268e+04	(5.88004450791150e+01dB,1.30389227600286e+02°)
5.12861383991360e+04	(5.87236855002204e+01dB,1.29420333122276e+02°)
5.24807460249768e+04	(5.86442767575139e+01dB,1.28439019240390e+02°)
5.37031796370248e+04	(5.85621583798692e+01dB,1.27445440886308e+02°)
5.49540873857620e+04	(5.84772703797626e+01dB,1.26439767332256e+02°)
5.62341325190344e+04	(5.83895533637392e+01dB,1.25422182138400e+02°)
5.75439937337152e+04	(5.82989486386025e+01dB,1.24392883070523e+02°)
5.88843655355584e+04	(5.82053983182310e+01dB,1.23352081967552e+02°)
6.02559586074352e+04	(5.81088454288509e+01dB,1.22300004565331e+02°)
6.16595001861477e+04	(5.80092340126505e+01dB,1.21236890275781e+02°)
6.30957344480187e+04	(5.79065092282001e+01dB,1.20162991926788e+02°)
6.45654229034650e+04	(5.78006174488873e+01dB,1.19078575457224e+02°)
6.60693448007590e+04	(5.76915063575247e+01dB,1.17983919574669e+02°)
6.76082975391975e+04	(5.75791250349324e+01dB,1.16879315386750e+02°)
6.91830970918930e+04	(5.74634240481282e+01dB,1.15765065980997e+02°)
7.07945784384131e+04	(5.73443555305910e+01dB,1.14641485989033e+02°)
7.24435960074983e+04	(5.72218732567494e+01dB,1.13508901128148e+02°)
7.41310241300911e+04	(5.70959327149844e+01dB,1.12367647701037e+02°)
7.58577575029177e+04	(5.69664911715981e+01dB,1.11218072093326e+02°)
7.76247116628685e+04	(5.68335077298197e+01dB,1.10060530252803e+02°)
7.94328234724274e+04	(5.66969433856676e+01dB,1.08895387143395e+02°)
8.12830516164092e+04	(5.65567610748950e+01dB,1.07723016208262e+02°)
8.31763771102663e+04	(5.64129257152893e+01dB,1.06543798824212e+02°)
